3c 03 00 31 00 01 d1 28 //读取模式
3c 03 00 33 00 01 70 e8 //读取室内温度 
3c 03 00 33 00 02 30 e9 ////连续读取两个字节
3c 03 00 32 00 01 21 28 ////读取风速等级 
3c 03 00 30 00 01 80 e8 ////读取状态
3c 03 00 34 00 01 c1 29 ///读取制冷温度
3c 03 00 36 00 01 60 e9 ////读取制热温度 

3c 03 00 37 00 01 31 29 ///开关机值


3c 06 00 31 00 00 dc e8 ///设置制冷模式
3c 06 00 31 00 01 1D 28 ////制热模式
3c 06 00 31 00 02 5d 29  ////通风模式


3c 06 00 32 00 00 2c e8 //低速风设置
3c 06 00 32 00 01 ed 28 //中风设置
3c 06 00 32 00 02 ad 29 //高速
3c 06 00 32 00 04 2d 2b //自动

3c 06 00 37 00 01 fd 29 //开机
3c 06 00 37 00 00 3c e9 //关机

3c 06 00 38 00 01 cd 2a //设置地址
01 06 00 38 00 3c 08 16




//////////////////////
3c 06 00 36 00 17 2D 27 ///制冷设定温度
3c 03 00 30 00 25 80 F3 ////读取所有寄存器